Raw Modbus RTU Capture
======================

[2026-06-12 03:39:17.406] TX len=8 slave=1 fn=0x03
01 03 00 00 00 08 44 0C

[2026-06-12 03:39:17.406] RX len=21 slave=1 fn=0x03 elapsed=0.1ms crc=OK
01 03 10 00 07 00 01 00 04 00 00 00 00 00 00 00 00 00 00 B4 EA

[2026-06-12 03:39:17.406] TX len=8 slave=1 fn=0x03
01 03 00 00 00 08 44 0C

[2026-06-12 03:39:17.406] RX len=21 slave=1 fn=0x03 elapsed=0.0ms crc=OK
01 03 10 00 07 00 01 00 04 00 00 00 00 00 00 00 00 00 00 B4 EA

[2026-06-12 03:39:17.406] TX len=8 slave=1 fn=0x03
01 03 00 08 00 20 C5 D0

[2026-06-12 03:39:17.406] RX len=69 slave=1 fn=0x03 elapsed=0.1ms crc=OK
01 03 40 00 00 30 39 00 00 02 18 00 00 59 D8 00 00 00 00 00 00 00 00 00 01 86 A0 00 00 10 FE 00 01 88 B8 00 00 27 10 00 00 4E 20 00 00 C3 50 00 01 86 A0 00 00 03 E8 00 00 07 D0 00 00 13 88 00 00 27 10 A1 01

[2026-06-12 03:39:17.406] TX len=8 slave=1 fn=0x03
01 03 00 3F 00 04 74 05

[2026-06-12 03:39:17.406] RX len=13 slave=1 fn=0x03 elapsed=0.0ms crc=OK
01 03 08 00 01 09 E4 0B BA 19 96 5D A7

[2026-06-12 03:39:17.406] TX len=8 slave=1 fn=0x03
01 03 00 3C 00 03 C5 C7

[2026-06-12 03:39:17.406] RX len=11 slave=1 fn=0x03 elapsed=0.0ms crc=OK
01 03 06 1A 04 18 0F 1E 2D 2D 91

[2026-06-12 03:39:17.406] TX len=8 slave=1 fn=0x03
01 03 00 28 00 02 44 03

[2026-06-12 03:39:17.406] RX len=9 slave=1 fn=0x03 elapsed=0.0ms crc=OK
01 03 04 00 00 00 03 BA 32

[2026-06-12 03:39:17.406] TX len=8 slave=1 fn=0x06
01 06 00 2A 00 00 A8 02

[2026-06-12 03:39:17.406] RX len=8 slave=1 fn=0x06 elapsed=0.0ms crc=OK
01 06 00 2A 00 00 A8 02

[2026-06-12 03:39:17.406] TX len=8 slave=1 fn=0x03
01 03 00 28 00 14 C5 CD

[2026-06-12 03:39:17.406] RX len=45 slave=1 fn=0x03 elapsed=0.0ms crc=OK
01 03 28 00 00 00 03 00 00 00 07 00 01 1A 04 18 0F 1E 2D 00 00 00 07 00 00 30 39 00 00 02 18 00 00 59 D8 00 01 88 B8 12 34 56 78 D0 18

[2026-06-12 03:39:17.406] TX len=8 slave=1 fn=0x03
01 03 00 28 00 02 44 03

[2026-06-12 03:39:17.407] RX len=9 slave=1 fn=0x03 elapsed=0.0ms crc=OK
01 03 04 00 00 00 03 BA 32

[2026-06-12 03:39:17.407] TX len=8 slave=1 fn=0x03
01 03 00 28 00 02 44 03

[2026-06-12 03:39:17.407] RX len=9 slave=1 fn=0x03 elapsed=0.0ms crc=OK
01 03 04 00 00 00 03 BA 32

[2026-06-12 03:39:17.407] TX len=8 slave=1 fn=0x06
01 06 00 2A 00 00 A8 02

[2026-06-12 03:39:17.407] RX len=8 slave=1 fn=0x06 elapsed=0.0ms crc=OK
01 06 00 2A 00 00 A8 02

[2026-06-12 03:39:17.407] TX len=8 slave=1 fn=0x03
01 03 00 28 00 14 C5 CD

[2026-06-12 03:39:17.407] RX len=45 slave=1 fn=0x03 elapsed=0.0ms crc=OK
01 03 28 00 00 00 03 00 00 00 07 00 01 1A 04 18 0F 1E 2D 00 00 00 07 00 00 30 39 00 00 02 18 00 00 59 D8 00 01 88 B8 12 34 56 78 D0 18

[2026-06-12 03:39:17.407] TX len=8 slave=1 fn=0x03
01 03 00 28 00 02 44 03

[2026-06-12 03:39:17.407] RX len=9 slave=1 fn=0x03 elapsed=0.0ms crc=OK
01 03 04 00 00 00 03 BA 32

[2026-06-12 03:39:17.407] TX len=8 slave=1 fn=0x06
01 06 00 2A 00 01 69 C2

[2026-06-12 03:39:17.407] RX len=8 slave=1 fn=0x06 elapsed=0.0ms crc=OK
01 06 00 2A 00 01 69 C2

[2026-06-12 03:39:17.407] TX len=8 slave=1 fn=0x03
01 03 00 28 00 14 C5 CD

[2026-06-12 03:39:17.407] RX len=45 slave=1 fn=0x03 elapsed=0.0ms crc=OK
01 03 28 00 00 00 03 00 01 00 07 00 01 1A 04 18 0E 0F 0A 00 00 00 06 00 00 4E 20 00 00 03 66 00 00 59 D8 00 01 86 A0 22 34 56 78 5B 7B

[2026-06-12 03:39:17.407] TX len=8 slave=1 fn=0x03
01 03 00 28 00 02 44 03

[2026-06-12 03:39:17.407] RX len=9 slave=1 fn=0x03 elapsed=0.0ms crc=OK
01 03 04 00 00 00 03 BA 32

[2026-06-12 03:39:17.407] TX len=8 slave=1 fn=0x06
01 06 00 2A 00 02 29 C3

[2026-06-12 03:39:17.407] RX len=8 slave=1 fn=0x06 elapsed=0.0ms crc=OK
01 06 00 2A 00 02 29 C3

[2026-06-12 03:39:17.407] TX len=8 slave=1 fn=0x03
01 03 00 28 00 14 C5 CD

[2026-06-12 03:39:17.407] RX len=45 slave=1 fn=0x03 elapsed=0.0ms crc=OK
01 03 28 00 00 00 03 00 02 00 07 00 01 1A 04 17 12 05 02 00 00 00 05 00 00 C3 50 00 00 08 7E 00 00 59 D8 00 01 83 3A 32 34 56 78 81 B7

[2026-06-12 03:39:17.407] TX len=8 slave=1 fn=0x03
01 03 00 00 00 08 44 0C

[2026-06-12 03:39:17.407] RX len=21 slave=1 fn=0x03 elapsed=0.0ms crc=OK
01 03 10 00 07 00 01 00 04 00 00 00 00 00 00 00 00 00 00 B4 EA

[2026-06-12 03:39:17.407] TX len=8 slave=1 fn=0x03
01 03 00 08 00 20 C5 D0

[2026-06-12 03:39:17.407] RX len=69 slave=1 fn=0x03 elapsed=0.1ms crc=OK
01 03 40 00 00 30 39 00 00 02 18 00 00 59 D8 00 00 00 00 00 00 00 00 00 01 86 A0 00 00 10 FE 00 01 88 B8 00 00 27 10 00 00 4E 20 00 00 C3 50 00 01 86 A0 00 00 03 E8 00 00 07 D0 00 00 13 88 00 00 27 10 A1 01

[2026-06-12 03:39:17.407] TX len=8 slave=1 fn=0x03
01 03 00 3F 00 04 74 05

[2026-06-12 03:39:17.407] RX len=13 slave=1 fn=0x03 elapsed=0.0ms crc=OK
01 03 08 00 01 09 E4 0B BA 19 96 5D A7

[2026-06-12 03:39:17.407] TX len=8 slave=1 fn=0x03
01 03 00 3C 00 03 C5 C7

[2026-06-12 03:39:17.408] RX len=11 slave=1 fn=0x03 elapsed=0.0ms crc=OK
01 03 06 1A 04 18 0F 1E 2D 2D 91

[2026-06-12 03:39:17.408] TX len=8 slave=1 fn=0x03
01 03 00 49 00 02 15 DD

[2026-06-12 03:39:17.408] RX len=9 slave=1 fn=0x03 elapsed=0.0ms crc=OK
01 03 04 00 00 00 00 FA 33

[2026-06-12 03:39:17.408] TX len=8 slave=1 fn=0x03
01 03 00 28 00 02 44 03

[2026-06-12 03:39:17.408] RX len=9 slave=1 fn=0x03 elapsed=0.0ms crc=OK
01 03 04 00 00 00 03 BA 32

[2026-06-12 03:39:17.408] TX len=8 slave=1 fn=0x06
01 06 00 2A 00 00 A8 02

[2026-06-12 03:39:17.408] RX len=8 slave=1 fn=0x06 elapsed=0.0ms crc=OK
01 06 00 2A 00 00 A8 02

[2026-06-12 03:39:17.408] TX len=8 slave=1 fn=0x03
01 03 00 28 00 14 C5 CD

[2026-06-12 03:39:17.408] RX len=45 slave=1 fn=0x03 elapsed=0.0ms crc=OK
01 03 28 00 00 00 03 00 00 00 07 00 01 1A 04 18 0F 1E 2D 00 00 00 07 00 00 30 39 00 00 02 18 00 00 59 D8 00 01 88 B8 12 34 56 78 D0 18

[2026-06-12 03:39:17.408] TX len=8 slave=1 fn=0x03
01 03 00 28 00 02 44 03

[2026-06-12 03:39:17.408] RX len=9 slave=1 fn=0x03 elapsed=0.0ms crc=OK
01 03 04 00 00 00 03 BA 32

[2026-06-12 03:39:17.408] TX len=8 slave=1 fn=0x03
01 03 00 28 00 02 44 03

[2026-06-12 03:39:17.408] RX len=9 slave=1 fn=0x03 elapsed=0.0ms crc=OK
01 03 04 00 00 00 03 BA 32

[2026-06-12 03:39:17.408] TX len=8 slave=1 fn=0x06
01 06 00 2A 00 00 A8 02

[2026-06-12 03:39:17.408] RX len=8 slave=1 fn=0x06 elapsed=0.0ms crc=OK
01 06 00 2A 00 00 A8 02

[2026-06-12 03:39:17.408] TX len=8 slave=1 fn=0x03
01 03 00 28 00 14 C5 CD

[2026-06-12 03:39:17.408] RX len=45 slave=1 fn=0x03 elapsed=0.0ms crc=OK
01 03 28 00 00 00 03 00 00 00 07 00 01 1A 04 18 0F 1E 2D 00 00 00 07 00 00 30 39 00 00 02 18 00 00 59 D8 00 01 88 B8 12 34 56 78 D0 18

[2026-06-12 03:39:17.408] TX len=8 slave=1 fn=0x03
01 03 00 28 00 02 44 03

[2026-06-12 03:39:17.408] RX len=9 slave=1 fn=0x03 elapsed=0.0ms crc=OK
01 03 04 00 00 00 03 BA 32

[2026-06-12 03:39:17.408] TX len=8 slave=1 fn=0x06
01 06 00 2A 00 01 69 C2

[2026-06-12 03:39:17.408] RX len=8 slave=1 fn=0x06 elapsed=0.0ms crc=OK
01 06 00 2A 00 01 69 C2

[2026-06-12 03:39:17.408] TX len=8 slave=1 fn=0x03
01 03 00 28 00 14 C5 CD

[2026-06-12 03:39:17.408] RX len=45 slave=1 fn=0x03 elapsed=0.0ms crc=OK
01 03 28 00 00 00 03 00 01 00 07 00 01 1A 04 18 0E 0F 0A 00 00 00 06 00 00 4E 20 00 00 03 66 00 00 59 D8 00 01 86 A0 22 34 56 78 5B 7B

[2026-06-12 03:39:17.408] TX len=8 slave=1 fn=0x03
01 03 00 28 00 02 44 03

[2026-06-12 03:39:17.408] RX len=9 slave=1 fn=0x03 elapsed=0.0ms crc=OK
01 03 04 00 00 00 03 BA 32

[2026-06-12 03:39:17.408] TX len=8 slave=1 fn=0x06
01 06 00 2A 00 02 29 C3

[2026-06-12 03:39:17.408] RX len=8 slave=1 fn=0x06 elapsed=0.0ms crc=OK
01 06 00 2A 00 02 29 C3

[2026-06-12 03:39:17.408] TX len=8 slave=1 fn=0x03
01 03 00 28 00 14 C5 CD

[2026-06-12 03:39:17.408] RX len=45 slave=1 fn=0x03 elapsed=0.0ms crc=OK
01 03 28 00 00 00 03 00 02 00 07 00 01 1A 04 17 12 05 02 00 00 00 05 00 00 C3 50 00 00 08 7E 00 00 59 D8 00 01 83 3A 32 34 56 78 81 B7

[2026-06-12 03:39:17.408] TX len=8 slave=1 fn=0x03
01 03 7F FF 00 01 AD EE

[2026-06-12 03:39:17.408] RX len=5 slave=1 fn=0x83 elapsed=0.0ms crc=OK
01 83 02 C0 F1

[2026-06-12 03:39:17.409] TX len=8 slave=1 fn=0x03
01 03 00 43 00 01 75 DE

[2026-06-12 03:39:17.409] RX len=7 slave=1 fn=0x03 elapsed=0.0ms crc=OK
01 03 02 00 00 B8 44

[2026-06-12 03:39:17.409] TX len=8 slave=1 fn=0x06
01 06 00 44 00 00 C9 DF

[2026-06-12 03:39:17.409] RX len=8 slave=1 fn=0x06 elapsed=0.0ms crc=OK
01 06 00 44 00 00 C9 DF

[2026-06-12 03:39:17.409] TX len=8 slave=1 fn=0x06
01 06 00 45 04 D2 1A 82

[2026-06-12 03:39:17.409] RX len=8 slave=1 fn=0x06 elapsed=0.0ms crc=OK
01 06 00 45 04 D2 1A 82

[2026-06-12 03:39:17.409] TX len=8 slave=1 fn=0x03
01 03 00 43 00 01 75 DE

[2026-06-12 03:39:17.409] RX len=7 slave=1 fn=0x03 elapsed=0.0ms crc=OK
01 03 02 00 01 79 84

[2026-06-12 03:39:17.409] TX len=8 slave=1 fn=0x03
01 03 00 43 00 01 75 DE

[2026-06-12 03:39:17.409] RX len=7 slave=1 fn=0x03 elapsed=0.0ms crc=OK
01 03 02 00 01 79 84

[2026-06-12 03:39:17.409] TX len=8 slave=1 fn=0x06
01 06 00 0C 00 00 49 C9

[2026-06-12 03:39:17.409] RX len=8 slave=1 fn=0x06 elapsed=0.0ms crc=OK
01 06 00 0C 00 00 49 C9

[2026-06-12 03:39:17.409] TX len=8 slave=1 fn=0x06
01 06 00 0D 61 A8 30 27

[2026-06-12 03:39:17.409] RX len=8 slave=1 fn=0x06 elapsed=0.0ms crc=OK
01 06 00 0D 61 A8 30 27

[2026-06-12 03:39:17.409] TX len=8 slave=1 fn=0x03
01 03 00 0C 00 02 04 08

[2026-06-12 03:39:17.409] RX len=9 slave=1 fn=0x03 elapsed=0.0ms crc=OK
01 03 04 00 00 61 A8 D2 1D
