{"timestamp": "2026-06-12 04:03:58.135", "direction": "TX", "port": "SIM", "slave_id": 1, "function_code": 3, "frame_hex": "01 03 00 00 00 08 44 0C", "frame_len": 8, "elapsed_ms": null, "crc_valid": null, "note": null}
{"timestamp": "2026-06-12 04:03:58.135", "direction": "RX", "port": "SIM", "slave_id": 1, "function_code": 3, "frame_hex": "01 03 10 00 07 00 01 00 04 00 00 00 00 00 00 00 00 00 00 B4 EA", "frame_len": 21, "elapsed_ms": 0.06500000017695129, "crc_valid": true, "note": null}
{"timestamp": "2026-06-12 04:03:58.135", "direction": "TX", "port": "SIM", "slave_id": 1, "function_code": 3, "frame_hex": "01 03 00 00 00 08 44 0C", "frame_len": 8, "elapsed_ms": null, "crc_valid": null, "note": null}
{"timestamp": "2026-06-12 04:03:58.135", "direction": "RX", "port": "SIM", "slave_id": 1, "function_code": 3, "frame_hex": "01 03 10 00 07 00 01 00 04 00 00 00 00 00 00 00 00 00 00 B4 EA", "frame_len": 21, "elapsed_ms": 0.02970000059576705, "crc_valid": true, "note": null}
{"timestamp": "2026-06-12 04:03:58.136", "direction": "TX", "port": "SIM", "slave_id": 1, "function_code": 3, "frame_hex": "01 03 00 08 00 20 C5 D0", "frame_len": 8, "elapsed_ms": null, "crc_valid": null, "note": null}
{"timestamp": "2026-06-12 04:03:58.136", "direction": "RX", "port": "SIM", "slave_id": 1, "function_code": 3, "frame_hex": "01 03 40 00 00 30 39 00 00 02 18 00 00 59 D8 00 00 00 00 00 00 00 00 00 01 86 A0 00 00 10 FE 00 01 88 B8 00 00 27 10 00 00 4E 20 00 00 C3 50 00 01 86 A0 00 00 03 E8 00 00 07 D0 00 00 13 88 00 00 27 10 A1 01", "frame_len": 69, "elapsed_ms": 0.0548999996681232, "crc_valid": true, "note": null}
{"timestamp": "2026-06-12 04:03:58.136", "direction": "TX", "port": "SIM", "slave_id": 1, "function_code": 3, "frame_hex": "01 03 00 3F 00 04 74 05", "frame_len": 8, "elapsed_ms": null, "crc_valid": null, "note": null}
{"timestamp": "2026-06-12 04:03:58.136", "direction": "RX", "port": "SIM", "slave_id": 1, "function_code": 3, "frame_hex": "01 03 08 00 01 09 E4 0B BA 19 96 5D A7", "frame_len": 13, "elapsed_ms": 0.018599999748403206, "crc_valid": true, "note": null}
{"timestamp": "2026-06-12 04:03:58.136", "direction": "TX", "port": "SIM", "slave_id": 1, "function_code": 3, "frame_hex": "01 03 00 3C 00 03 C5 C7", "frame_len": 8, "elapsed_ms": null, "crc_valid": null, "note": null}
{"timestamp": "2026-06-12 04:03:58.136", "direction": "RX", "port": "SIM", "slave_id": 1, "function_code": 3, "frame_hex": "01 03 06 1A 04 18 0F 1E 2D 2D 91", "frame_len": 11, "elapsed_ms": 0.016400000276917126, "crc_valid": true, "note": null}
{"timestamp": "2026-06-12 04:03:58.136", "direction": "TX", "port": "SIM", "slave_id": 1, "function_code": 3, "frame_hex": "01 03 00 28 00 02 44 03", "frame_len": 8, "elapsed_ms": null, "crc_valid": null, "note": null}
{"timestamp": "2026-06-12 04:03:58.136", "direction": "RX", "port": "SIM", "slave_id": 1, "function_code": 3, "frame_hex": "01 03 04 00 00 00 03 BA 32", "frame_len": 9, "elapsed_ms": 0.02170000061596511, "crc_valid": true, "note": null}
{"timestamp": "2026-06-12 04:03:58.136", "direction": "TX", "port": "SIM", "slave_id": 1, "function_code": 6, "frame_hex": "01 06 00 2A 00 00 A8 02", "frame_len": 8, "elapsed_ms": null, "crc_valid": null, "note": null}
{"timestamp": "2026-06-12 04:03:58.136", "direction": "RX", "port": "SIM", "slave_id": 1, "function_code": 6, "frame_hex": "01 06 00 2A 00 00 A8 02", "frame_len": 8, "elapsed_ms": 0.015999999959603883, "crc_valid": true, "note": null}
{"timestamp": "2026-06-12 04:03:58.136", "direction": "TX", "port": "SIM", "slave_id": 1, "function_code": 3, "frame_hex": "01 03 00 28 00 14 C5 CD", "frame_len": 8, "elapsed_ms": null, "crc_valid": null, "note": null}
{"timestamp": "2026-06-12 04:03:58.136", "direction": "RX", "port": "SIM", "slave_id": 1, "function_code": 3, "frame_hex": "01 03 28 00 00 00 03 00 00 00 07 00 01 1A 04 18 0F 1E 2D 00 00 00 07 00 00 30 39 00 00 02 18 00 00 59 D8 00 01 88 B8 12 34 56 78 D0 18", "frame_len": 45, "elapsed_ms": 0.037000000702391844, "crc_valid": true, "note": null}
{"timestamp": "2026-06-12 04:03:58.136", "direction": "TX", "port": "SIM", "slave_id": 1, "function_code": 3, "frame_hex": "01 03 00 28 00 02 44 03", "frame_len": 8, "elapsed_ms": null, "crc_valid": null, "note": null}
{"timestamp": "2026-06-12 04:03:58.136", "direction": "RX", "port": "SIM", "slave_id": 1, "function_code": 3, "frame_hex": "01 03 04 00 00 00 03 BA 32", "frame_len": 9, "elapsed_ms": 0.016900000446185004, "crc_valid": true, "note": null}
{"timestamp": "2026-06-12 04:03:58.136", "direction": "TX", "port": "SIM", "slave_id": 1, "function_code": 3, "frame_hex": "01 03 00 28 00 02 44 03", "frame_len": 8, "elapsed_ms": null, "crc_valid": null, "note": null}
{"timestamp": "2026-06-12 04:03:58.136", "direction": "RX", "port": "SIM", "slave_id": 1, "function_code": 3, "frame_hex": "01 03 04 00 00 00 03 BA 32", "frame_len": 9, "elapsed_ms": 0.015100000382517464, "crc_valid": true, "note": null}
{"timestamp": "2026-06-12 04:03:58.136", "direction": "TX", "port": "SIM", "slave_id": 1, "function_code": 6, "frame_hex": "01 06 00 2A 00 00 A8 02", "frame_len": 8, "elapsed_ms": null, "crc_valid": null, "note": null}
{"timestamp": "2026-06-12 04:03:58.136", "direction": "RX", "port": "SIM", "slave_id": 1, "function_code": 6, "frame_hex": "01 06 00 2A 00 00 A8 02", "frame_len": 8, "elapsed_ms": 0.015700000403739978, "crc_valid": true, "note": null}
{"timestamp": "2026-06-12 04:03:58.136", "direction": "TX", "port": "SIM", "slave_id": 1, "function_code": 3, "frame_hex": "01 03 00 28 00 14 C5 CD", "frame_len": 8, "elapsed_ms": null, "crc_valid": null, "note": null}
{"timestamp": "2026-06-12 04:03:58.136", "direction": "RX", "port": "SIM", "slave_id": 1, "function_code": 3, "frame_hex": "01 03 28 00 00 00 03 00 00 00 07 00 01 1A 04 18 0F 1E 2D 00 00 00 07 00 00 30 39 00 00 02 18 00 00 59 D8 00 01 88 B8 12 34 56 78 D0 18", "frame_len": 45, "elapsed_ms": 0.03680000008898787, "crc_valid": true, "note": null}
{"timestamp": "2026-06-12 04:03:58.136", "direction": "TX", "port": "SIM", "slave_id": 1, "function_code": 3, "frame_hex": "01 03 00 28 00 02 44 03", "frame_len": 8, "elapsed_ms": null, "crc_valid": null, "note": null}
{"timestamp": "2026-06-12 04:03:58.136", "direction": "RX", "port": "SIM", "slave_id": 1, "function_code": 3, "frame_hex": "01 03 04 00 00 00 03 BA 32", "frame_len": 9, "elapsed_ms": 0.016399999367422424, "crc_valid": true, "note": null}
{"timestamp": "2026-06-12 04:03:58.136", "direction": "TX", "port": "SIM", "slave_id": 1, "function_code": 6, "frame_hex": "01 06 00 2A 00 01 69 C2", "frame_len": 8, "elapsed_ms": null, "crc_valid": null, "note": null}
{"timestamp": "2026-06-12 04:03:58.136", "direction": "RX", "port": "SIM", "slave_id": 1, "function_code": 6, "frame_hex": "01 06 00 2A 00 01 69 C2", "frame_len": 8, "elapsed_ms": 0.014100000043981709, "crc_valid": true, "note": null}
{"timestamp": "2026-06-12 04:03:58.136", "direction": "TX", "port": "SIM", "slave_id": 1, "function_code": 3, "frame_hex": "01 03 00 28 00 14 C5 CD", "frame_len": 8, "elapsed_ms": null, "crc_valid": null, "note": null}
{"timestamp": "2026-06-12 04:03:58.136", "direction": "RX", "port": "SIM", "slave_id": 1, "function_code": 3, "frame_hex": "01 03 28 00 00 00 03 00 01 00 07 00 01 1A 04 18 0E 0F 0A 00 00 00 06 00 00 4E 20 00 00 03 66 00 00 59 D8 00 01 86 A0 22 34 56 78 5B 7B", "frame_len": 45, "elapsed_ms": 0.036499999623629265, "crc_valid": true, "note": null}
{"timestamp": "2026-06-12 04:03:58.136", "direction": "TX", "port": "SIM", "slave_id": 1, "function_code": 3, "frame_hex": "01 03 00 28 00 02 44 03", "frame_len": 8, "elapsed_ms": null, "crc_valid": null, "note": null}
{"timestamp": "2026-06-12 04:03:58.136", "direction": "RX", "port": "SIM", "slave_id": 1, "function_code": 3, "frame_hex": "01 03 04 00 00 00 03 BA 32", "frame_len": 9, "elapsed_ms": 0.015999999959603883, "crc_valid": true, "note": null}
{"timestamp": "2026-06-12 04:03:58.136", "direction": "TX", "port": "SIM", "slave_id": 1, "function_code": 6, "frame_hex": "01 06 00 2A 00 02 29 C3", "frame_len": 8, "elapsed_ms": null, "crc_valid": null, "note": null}
{"timestamp": "2026-06-12 04:03:58.136", "direction": "RX", "port": "SIM", "slave_id": 1, "function_code": 6, "frame_hex": "01 06 00 2A 00 02 29 C3", "frame_len": 8, "elapsed_ms": 0.013099999705445953, "crc_valid": true, "note": null}
{"timestamp": "2026-06-12 04:03:58.136", "direction": "TX", "port": "SIM", "slave_id": 1, "function_code": 3, "frame_hex": "01 03 00 28 00 14 C5 CD", "frame_len": 8, "elapsed_ms": null, "crc_valid": null, "note": null}
{"timestamp": "2026-06-12 04:03:58.136", "direction": "RX", "port": "SIM", "slave_id": 1, "function_code": 3, "frame_hex": "01 03 28 00 00 00 03 00 02 00 07 00 01 1A 04 17 12 05 02 00 00 00 05 00 00 C3 50 00 00 08 7E 00 00 59 D8 00 01 83 3A 32 34 56 78 81 B7", "frame_len": 45, "elapsed_ms": 0.03699999979289714, "crc_valid": true, "note": null}
{"timestamp": "2026-06-12 04:03:58.137", "direction": "TX", "port": "SIM", "slave_id": 1, "function_code": 3, "frame_hex": "01 03 00 00 00 08 44 0C", "frame_len": 8, "elapsed_ms": null, "crc_valid": null, "note": null}
{"timestamp": "2026-06-12 04:03:58.137", "direction": "RX", "port": "SIM", "slave_id": 1, "function_code": 3, "frame_hex": "01 03 10 00 07 00 01 00 04 00 00 00 00 00 00 00 00 00 00 B4 EA", "frame_len": 21, "elapsed_ms": 0.02390000008745119, "crc_valid": true, "note": null}
{"timestamp": "2026-06-12 04:03:58.137", "direction": "TX", "port": "SIM", "slave_id": 1, "function_code": 3, "frame_hex": "01 03 00 08 00 20 C5 D0", "frame_len": 8, "elapsed_ms": null, "crc_valid": null, "note": null}
{"timestamp": "2026-06-12 04:03:58.137", "direction": "RX", "port": "SIM", "slave_id": 1, "function_code": 3, "frame_hex": "01 03 40 00 00 30 39 00 00 02 18 00 00 59 D8 00 00 00 00 00 00 00 00 00 01 86 A0 00 00 10 FE 00 01 88 B8 00 00 27 10 00 00 4E 20 00 00 C3 50 00 01 86 A0 00 00 03 E8 00 00 07 D0 00 00 13 88 00 00 27 10 A1 01", "frame_len": 69, "elapsed_ms": 0.051500000154192094, "crc_valid": true, "note": null}
{"timestamp": "2026-06-12 04:03:58.137", "direction": "TX", "port": "SIM", "slave_id": 1, "function_code": 3, "frame_hex": "01 03 00 3F 00 04 74 05", "frame_len": 8, "elapsed_ms": null, "crc_valid": null, "note": null}
{"timestamp": "2026-06-12 04:03:58.137", "direction": "RX", "port": "SIM", "slave_id": 1, "function_code": 3, "frame_hex": "01 03 08 00 01 09 E4 0B BA 19 96 5D A7", "frame_len": 13, "elapsed_ms": 0.0183000001925393, "crc_valid": true, "note": null}
{"timestamp": "2026-06-12 04:03:58.137", "direction": "TX", "port": "SIM", "slave_id": 1, "function_code": 3, "frame_hex": "01 03 00 3C 00 03 C5 C7", "frame_len": 8, "elapsed_ms": null, "crc_valid": null, "note": null}
{"timestamp": "2026-06-12 04:03:58.137", "direction": "RX", "port": "SIM", "slave_id": 1, "function_code": 3, "frame_hex": "01 03 06 1A 04 18 0F 1E 2D 2D 91", "frame_len": 11, "elapsed_ms": 0.015800000255694613, "crc_valid": true, "note": null}
{"timestamp": "2026-06-12 04:03:58.137", "direction": "TX", "port": "SIM", "slave_id": 1, "function_code": 3, "frame_hex": "01 03 00 49 00 02 15 DD", "frame_len": 8, "elapsed_ms": null, "crc_valid": null, "note": null}
{"timestamp": "2026-06-12 04:03:58.137", "direction": "RX", "port": "SIM", "slave_id": 1, "function_code": 3, "frame_hex": "01 03 04 00 00 00 00 FA 33", "frame_len": 9, "elapsed_ms": 0.014400000509340316, "crc_valid": true, "note": null}
{"timestamp": "2026-06-12 04:03:58.137", "direction": "TX", "port": "SIM", "slave_id": 1, "function_code": 3, "frame_hex": "01 03 00 28 00 02 44 03", "frame_len": 8, "elapsed_ms": null, "crc_valid": null, "note": null}
{"timestamp": "2026-06-12 04:03:58.137", "direction": "RX", "port": "SIM", "slave_id": 1, "function_code": 3, "frame_hex": "01 03 04 00 00 00 03 BA 32", "frame_len": 9, "elapsed_ms": 0.01630000042496249, "crc_valid": true, "note": null}
{"timestamp": "2026-06-12 04:03:58.137", "direction": "TX", "port": "SIM", "slave_id": 1, "function_code": 6, "frame_hex": "01 06 00 2A 00 00 A8 02", "frame_len": 8, "elapsed_ms": null, "crc_valid": null, "note": null}
{"timestamp": "2026-06-12 04:03:58.137", "direction": "RX", "port": "SIM", "slave_id": 1, "function_code": 6, "frame_hex": "01 06 00 2A 00 00 A8 02", "frame_len": 8, "elapsed_ms": 0.01340000017080456, "crc_valid": true, "note": null}
{"timestamp": "2026-06-12 04:03:58.137", "direction": "TX", "port": "SIM", "slave_id": 1, "function_code": 3, "frame_hex": "01 03 00 28 00 14 C5 CD", "frame_len": 8, "elapsed_ms": null, "crc_valid": null, "note": null}
{"timestamp": "2026-06-12 04:03:58.137", "direction": "RX", "port": "SIM", "slave_id": 1, "function_code": 3, "frame_hex": "01 03 28 00 00 00 03 00 00 00 07 00 01 1A 04 18 0F 1E 2D 00 00 00 07 00 00 30 39 00 00 02 18 00 00 59 D8 00 01 88 B8 12 34 56 78 D0 18", "frame_len": 45, "elapsed_ms": 0.03709999964485178, "crc_valid": true, "note": null}
{"timestamp": "2026-06-12 04:03:58.137", "direction": "TX", "port": "SIM", "slave_id": 1, "function_code": 3, "frame_hex": "01 03 00 28 00 02 44 03", "frame_len": 8, "elapsed_ms": null, "crc_valid": null, "note": null}
{"timestamp": "2026-06-12 04:03:58.137", "direction": "RX", "port": "SIM", "slave_id": 1, "function_code": 3, "frame_hex": "01 03 04 00 00 00 03 BA 32", "frame_len": 9, "elapsed_ms": 0.01720000000204891, "crc_valid": true, "note": null}
{"timestamp": "2026-06-12 04:03:58.137", "direction": "TX", "port": "SIM", "slave_id": 1, "function_code": 3, "frame_hex": "01 03 00 28 00 02 44 03", "frame_len": 8, "elapsed_ms": null, "crc_valid": null, "note": null}
{"timestamp": "2026-06-12 04:03:58.137", "direction": "RX", "port": "SIM", "slave_id": 1, "function_code": 3, "frame_hex": "01 03 04 00 00 00 03 BA 32", "frame_len": 9, "elapsed_ms": 0.015900000107649248, "crc_valid": true, "note": null}
{"timestamp": "2026-06-12 04:03:58.137", "direction": "TX", "port": "SIM", "slave_id": 1, "function_code": 6, "frame_hex": "01 06 00 2A 00 00 A8 02", "frame_len": 8, "elapsed_ms": null, "crc_valid": null, "note": null}
{"timestamp": "2026-06-12 04:03:58.137", "direction": "RX", "port": "SIM", "slave_id": 1, "function_code": 6, "frame_hex": "01 06 00 2A 00 00 A8 02", "frame_len": 8, "elapsed_ms": 0.014400000509340316, "crc_valid": true, "note": null}
{"timestamp": "2026-06-12 04:03:58.137", "direction": "TX", "port": "SIM", "slave_id": 1, "function_code": 3, "frame_hex": "01 03 00 28 00 14 C5 CD", "frame_len": 8, "elapsed_ms": null, "crc_valid": null, "note": null}
{"timestamp": "2026-06-12 04:03:58.137", "direction": "RX", "port": "SIM", "slave_id": 1, "function_code": 3, "frame_hex": "01 03 28 00 00 00 03 00 00 00 07 00 01 1A 04 18 0F 1E 2D 00 00 00 07 00 00 30 39 00 00 02 18 00 00 59 D8 00 01 88 B8 12 34 56 78 D0 18", "frame_len": 45, "elapsed_ms": 0.03860000015265541, "crc_valid": true, "note": null}
{"timestamp": "2026-06-12 04:03:58.137", "direction": "TX", "port": "SIM", "slave_id": 1, "function_code": 3, "frame_hex": "01 03 00 28 00 02 44 03", "frame_len": 8, "elapsed_ms": null, "crc_valid": null, "note": null}
{"timestamp": "2026-06-12 04:03:58.137", "direction": "RX", "port": "SIM", "slave_id": 1, "function_code": 3, "frame_hex": "01 03 04 00 00 00 03 BA 32", "frame_len": 9, "elapsed_ms": 0.015900000107649248, "crc_valid": true, "note": null}
{"timestamp": "2026-06-12 04:03:58.137", "direction": "TX", "port": "SIM", "slave_id": 1, "function_code": 6, "frame_hex": "01 06 00 2A 00 01 69 C2", "frame_len": 8, "elapsed_ms": null, "crc_valid": null, "note": null}
{"timestamp": "2026-06-12 04:03:58.137", "direction": "RX", "port": "SIM", "slave_id": 1, "function_code": 6, "frame_hex": "01 06 00 2A 00 01 69 C2", "frame_len": 8, "elapsed_ms": 0.012900000001536682, "crc_valid": true, "note": null}
{"timestamp": "2026-06-12 04:03:58.137", "direction": "TX", "port": "SIM", "slave_id": 1, "function_code": 3, "frame_hex": "01 03 00 28 00 14 C5 CD", "frame_len": 8, "elapsed_ms": null, "crc_valid": null, "note": null}
{"timestamp": "2026-06-12 04:03:58.137", "direction": "RX", "port": "SIM", "slave_id": 1, "function_code": 3, "frame_hex": "01 03 28 00 00 00 03 00 01 00 07 00 01 1A 04 18 0E 0F 0A 00 00 00 06 00 00 4E 20 00 00 03 66 00 00 59 D8 00 01 86 A0 22 34 56 78 5B 7B", "frame_len": 45, "elapsed_ms": 0.03719999949680641, "crc_valid": true, "note": null}
{"timestamp": "2026-06-12 04:03:58.137", "direction": "TX", "port": "SIM", "slave_id": 1, "function_code": 3, "frame_hex": "01 03 00 28 00 02 44 03", "frame_len": 8, "elapsed_ms": null, "crc_valid": null, "note": null}
{"timestamp": "2026-06-12 04:03:58.137", "direction": "RX", "port": "SIM", "slave_id": 1, "function_code": 3, "frame_hex": "01 03 04 00 00 00 03 BA 32", "frame_len": 9, "elapsed_ms": 0.015600000551785342, "crc_valid": true, "note": null}
{"timestamp": "2026-06-12 04:03:58.137", "direction": "TX", "port": "SIM", "slave_id": 1, "function_code": 6, "frame_hex": "01 06 00 2A 00 02 29 C3", "frame_len": 8, "elapsed_ms": null, "crc_valid": null, "note": null}
{"timestamp": "2026-06-12 04:03:58.137", "direction": "RX", "port": "SIM", "slave_id": 1, "function_code": 6, "frame_hex": "01 06 00 2A 00 02 29 C3", "frame_len": 8, "elapsed_ms": 0.012999999853491317, "crc_valid": true, "note": null}
{"timestamp": "2026-06-12 04:03:58.138", "direction": "TX", "port": "SIM", "slave_id": 1, "function_code": 3, "frame_hex": "01 03 00 28 00 14 C5 CD", "frame_len": 8, "elapsed_ms": null, "crc_valid": null, "note": null}
{"timestamp": "2026-06-12 04:03:58.138", "direction": "RX", "port": "SIM", "slave_id": 1, "function_code": 3, "frame_hex": "01 03 28 00 00 00 03 00 02 00 07 00 01 1A 04 17 12 05 02 00 00 00 05 00 00 C3 50 00 00 08 7E 00 00 59 D8 00 01 83 3A 32 34 56 78 81 B7", "frame_len": 45, "elapsed_ms": 0.03689999994094251, "crc_valid": true, "note": null}
{"timestamp": "2026-06-12 04:03:58.138", "direction": "TX", "port": "SIM", "slave_id": 1, "function_code": 3, "frame_hex": "01 03 7F FF 00 01 AD EE", "frame_len": 8, "elapsed_ms": null, "crc_valid": null, "note": null}
{"timestamp": "2026-06-12 04:03:58.138", "direction": "RX", "port": "SIM", "slave_id": 1, "function_code": 131, "frame_hex": "01 83 02 C0 F1", "frame_len": 5, "elapsed_ms": 0.013800000488117803, "crc_valid": true, "note": null}
{"timestamp": "2026-06-12 04:03:58.138", "direction": "TX", "port": "SIM", "slave_id": 1, "function_code": 3, "frame_hex": "01 03 00 43 00 01 75 DE", "frame_len": 8, "elapsed_ms": null, "crc_valid": null, "note": null}
{"timestamp": "2026-06-12 04:03:58.138", "direction": "RX", "port": "SIM", "slave_id": 1, "function_code": 3, "frame_hex": "01 03 02 00 00 B8 44", "frame_len": 7, "elapsed_ms": 0.013800000488117803, "crc_valid": true, "note": null}
{"timestamp": "2026-06-12 04:03:58.138", "direction": "TX", "port": "SIM", "slave_id": 1, "function_code": 6, "frame_hex": "01 06 00 44 00 00 C9 DF", "frame_len": 8, "elapsed_ms": null, "crc_valid": null, "note": null}
{"timestamp": "2026-06-12 04:03:58.138", "direction": "RX", "port": "SIM", "slave_id": 1, "function_code": 6, "frame_hex": "01 06 00 44 00 00 C9 DF", "frame_len": 8, "elapsed_ms": 0.015099999473022763, "crc_valid": true, "note": null}
{"timestamp": "2026-06-12 04:03:58.138", "direction": "TX", "port": "SIM", "slave_id": 1, "function_code": 6, "frame_hex": "01 06 00 45 04 D2 1A 82", "frame_len": 8, "elapsed_ms": null, "crc_valid": null, "note": null}
{"timestamp": "2026-06-12 04:03:58.138", "direction": "RX", "port": "SIM", "slave_id": 1, "function_code": 6, "frame_hex": "01 06 00 45 04 D2 1A 82", "frame_len": 8, "elapsed_ms": 0.014200000805431046, "crc_valid": true, "note": null}
{"timestamp": "2026-06-12 04:03:58.138", "direction": "TX", "port": "SIM", "slave_id": 1, "function_code": 3, "frame_hex": "01 03 00 43 00 01 75 DE", "frame_len": 8, "elapsed_ms": null, "crc_valid": null, "note": null}
{"timestamp": "2026-06-12 04:03:58.138", "direction": "RX", "port": "SIM", "slave_id": 1, "function_code": 3, "frame_hex": "01 03 02 00 01 79 84", "frame_len": 7, "elapsed_ms": 0.014100000043981709, "crc_valid": true, "note": null}
{"timestamp": "2026-06-12 04:03:58.138", "direction": "TX", "port": "SIM", "slave_id": 1, "function_code": 3, "frame_hex": "01 03 00 43 00 01 75 DE", "frame_len": 8, "elapsed_ms": null, "crc_valid": null, "note": null}
{"timestamp": "2026-06-12 04:03:58.138", "direction": "RX", "port": "SIM", "slave_id": 1, "function_code": 3, "frame_hex": "01 03 02 00 01 79 84", "frame_len": 7, "elapsed_ms": 0.012800000149582047, "crc_valid": true, "note": null}
{"timestamp": "2026-06-12 04:03:58.138", "direction": "TX", "port": "SIM", "slave_id": 1, "function_code": 6, "frame_hex": "01 06 00 0C 00 00 49 C9", "frame_len": 8, "elapsed_ms": null, "crc_valid": null, "note": null}
{"timestamp": "2026-06-12 04:03:58.138", "direction": "RX", "port": "SIM", "slave_id": 1, "function_code": 6, "frame_hex": "01 06 00 0C 00 00 49 C9", "frame_len": 8, "elapsed_ms": 0.0152000002344721, "crc_valid": true, "note": null}
{"timestamp": "2026-06-12 04:03:58.138", "direction": "TX", "port": "SIM", "slave_id": 1, "function_code": 6, "frame_hex": "01 06 00 0D 61 A8 30 27", "frame_len": 8, "elapsed_ms": null, "crc_valid": null, "note": null}
{"timestamp": "2026-06-12 04:03:58.138", "direction": "RX", "port": "SIM", "slave_id": 1, "function_code": 6, "frame_hex": "01 06 00 0D 61 A8 30 27", "frame_len": 8, "elapsed_ms": 0.014999999621068127, "crc_valid": true, "note": null}
{"timestamp": "2026-06-12 04:03:58.138", "direction": "TX", "port": "SIM", "slave_id": 1, "function_code": 3, "frame_hex": "01 03 00 0C 00 02 04 08", "frame_len": 8, "elapsed_ms": null, "crc_valid": null, "note": null}
{"timestamp": "2026-06-12 04:03:58.138", "direction": "RX", "port": "SIM", "slave_id": 1, "function_code": 3, "frame_hex": "01 03 04 00 00 61 A8 D2 1D", "frame_len": 9, "elapsed_ms": 0.014299999747890979, "crc_valid": true, "note": null}
